!Agilent Technologies,E5071C,MY46101104,A.08.01
!Date: Mon Jan 01 00:41:27 2001
!Data & Calibration Information:
!Freq	S11:SOLT2(ON)	S21:SOLT2(ON)	S12:SOLT2(ON)	S22:SOLT2(ON)
# Hz S dB R 50
100000	1.312715e-001	-4.993867e+000	-6.524917e+001	-1.461542e+002	-6.121123e+001	-3.900310e+001	-1.107144e+000	-1.786174e+002
42599500	9.963786e-002	-3.004392e+000	-6.447567e+001	1.205385e+002	-6.129081e+001	-1.280081e+002	-1.082573e+000	1.789967e+002
85099000	-3.500477e-001	-7.016139e+000	-6.515341e+001	3.123831e+001	-6.093884e+001	1.278984e+002	-5.001587e-001	1.756370e+002
127598500	-5.745378e-002	-1.878783e+001	-6.551214e+001	-6.151217e+001	-6.116972e+001	1.957073e+001	2.366154e-001	1.689955e+002
170098000	4.323603e-001	-2.673705e+001	-6.699583e+001	-1.414564e+002	-6.172725e+001	-8.806950e+001	6.681984e-001	1.591756e+002
212597500	1.110798e-001	-2.961914e+001	-6.774532e+001	1.281125e+002	-6.263621e+001	1.638768e+002	5.560201e-001	1.487999e+002
255097000	-4.334914e-001	-3.340991e+001	-6.838470e+001	3.482881e+001	-6.509245e+001	5.394402e+001	1.586961e-001	1.406165e+002
297596500	-2.839187e-001	-3.940782e+001	-6.969183e+001	-4.569207e+001	-6.641553e+001	-5.515477e+001	-1.296728e-001	1.349093e+002
340096000	4.490773e-002	-4.554986e+001	-7.200068e+001	-1.301709e+002	-6.764881e+001	-1.542540e+002	-1.773549e-001	1.303245e+002
382595500	-5.829512e-002	-5.280678e+001	-7.368156e+001	1.486264e+002	-6.900947e+001	1.149845e+002	-9.525603e-002	1.254883e+002
425095000	-1.986322e-001	-6.072130e+001	-7.454399e+001	4.705172e+001	-7.268591e+001	7.131502e+000	-5.272102e-002	1.199932e+002
467594500	-1.331201e-001	-6.650885e+001	-7.836626e+001	-5.908316e+001	-7.400702e+001	-1.052595e+002	-1.123109e-001	1.138935e+002
510094000	-1.143174e-001	-7.143900e+001	-8.657998e+001	-6.613777e+001	-7.469799e+001	1.663290e+002	-1.942637e-001	1.076795e+002
552593500	-1.170743e-001	-7.736249e+001	-7.994996e+001	-1.643002e+002	-8.209429e+001	1.205280e+002	-2.083987e-001	1.014603e+002
595093000	-1.302823e-001	-8.314114e+001	-9.121412e+001	1.700799e+002	-8.044209e+001	9.759572e+001	-2.168214e-001	9.515825e+001
637592500	-1.343361e-001	-8.885520e+001	-8.848995e+001	7.544895e+001	-9.868940e+001	2.841864e+001	-2.212170e-001	8.879169e+001
680092000	-1.378434e-001	-9.457689e+001	-8.151557e+001	-5.825772e+001	-9.990709e+001	-1.229575e+002	-2.233194e-001	8.239383e+001
722591500	-1.468738e-001	-1.002406e+002	-8.849049e+001	-8.494507e+001	-8.037378e+001	-1.254338e+002	-2.388384e-001	7.608830e+001
765091000	-1.591301e-001	-1.059514e+002	-8.071708e+001	6.978360e+001	-8.212374e+001	-1.675330e+002	-2.404511e-001	6.970900e+001
807590500	-1.654083e-001	-1.116350e+002	-8.323818e+001	-1.273877e+002	-8.333884e+001	9.730227e+001	-2.581004e-001	6.328587e+001
850090000	-1.861968e-001	-1.173207e+002	-7.842125e+001	-1.754308e+002	-8.422455e+001	-1.770410e+002	-2.905709e-001	5.684242e+001
892589500	-2.041266e-001	-1.228806e+002	-8.890605e+001	1.523342e+002	-7.937544e+001	1.600046e+002	-3.443556e-001	5.007749e+001
935089000	-2.049815e-001	-1.284423e+002	-8.595390e+001	-1.782480e+002	-8.414694e+001	-1.645416e+002	-2.865575e-001	4.349252e+001
977588500	-2.145956e-001	-1.339315e+002	-8.470624e+001	1.162410e+002	-8.099897e+001	1.447037e+002	-2.933669e-001	3.688584e+001
1020088000	-2.187602e-001	-1.394997e+002	-7.924560e+001	1.229645e+002	-7.888269e+001	-1.922903e+001	-2.971423e-001	3.029028e+001
1062587500	-2.217008e-001	-1.450342e+002	-8.982955e+001	1.280894e+002	-8.789112e+001	6.728550e+001	-3.161221e-001	2.364077e+001
1105087000	-2.238354e-001	-1.505522e+002	-8.050145e+001	1.598478e+002	-8.275478e+001	-1.783324e+002	-3.255176e-001	1.698369e+001
1147586500	-2.371978e-001	-1.560088e+002	-8.073647e+001	1.605711e+002	-9.166021e+001	-6.972499e+001	-3.329441e-001	1.020569e+001
1190086000	-2.560084e-001	-1.615639e+002	-8.074151e+001	4.591556e+001	-8.688657e+001	1.407472e+002	-3.389111e-001	3.426502e+000
1232585500	-2.684001e-001	-1.672360e+002	-7.558965e+001	7.324009e+001	-7.430586e+001	6.947986e+001	-3.354116e-001	-3.217404e+000
1275085000	-2.778840e-001	-1.727902e+002	-9.012338e+001	1.003159e+002	-8.139300e+001	7.927294e+001	-3.453288e-001	-9.646477e+000
1317584500	-2.874615e-001	-1.780501e+002	-7.256531e+001	7.433849e+001	-7.748694e+001	1.043550e+002	-3.554606e-001	-1.646923e+001
1360084000	-2.920608e-001	1.765061e+002	-7.919477e+001	6.978629e+001	-8.707482e+001	6.701555e+001	-3.571857e-001	-2.332390e+001
1402583500	-2.985949e-001	1.710491e+002	-7.477664e+001	5.881304e+001	-7.269308e+001	5.247510e+001	-3.670600e-001	-3.000765e+001
1445083000	-3.101441e-001	1.654780e+002	-7.839160e+001	1.448025e+001	-8.359478e+001	4.626713e+001	-3.735577e-001	-3.663018e+001
1487582500	-3.227599e-001	1.599333e+002	-7.511195e+001	9.493271e+000	-8.736639e+001	5.185542e+001	-3.777944e-001	-4.321286e+001
1530082000	-3.373317e-001	1.544061e+002	-7.304161e+001	4.123196e+000	-7.338661e+001	2.541032e+001	-3.825625e-001	-4.974580e+001
1572581500	-3.467914e-001	1.486988e+002	-7.583067e+001	1.955133e+001	-8.375005e+001	5.323568e+001	-3.874044e-001	-5.620664e+001
1615081000	-3.537440e-001	1.430191e+002	-7.640389e+001	2.384417e+001	-7.531904e+001	2.621297e+001	-3.873750e-001	-6.264593e+001
1657580500	-3.763124e-001	1.373700e+002	-7.837207e+001	2.216646e+001	-7.312287e+001	3.348131e+001	-3.926074e-001	-6.912555e+001
1700080000	-3.925904e-001	1.317020e+002	-7.633677e+001	1.191566e+001	-7.658400e+001	5.191757e+000	-3.889818e-001	-7.534446e+001
1742579500	-4.033559e-001	1.259534e+002	-7.295292e+001	4.186571e+001	-7.710732e+001	1.551947e+001	-3.888867e-001	-8.160618e+001
1785079000	-4.228302e-001	1.201391e+002	-9.609000e+001	8.807951e+001	-8.357488e+001	2.468853e+001	-3.910031e-001	-8.773472e+001
1827578500	-4.400407e-001	1.142303e+002	-7.343675e+001	-1.542328e+000	-7.417311e+001	-7.538161e+000	-3.951852e-001	-9.382583e+001
1870078000	-4.606879e-001	1.082055e+002	-7.432620e+001	3.671740e+000	-7.062208e+001	2.508537e+001	-3.945242e-001	-9.985647e+001
1912577500	-4.738022e-001	1.021043e+002	-7.593071e+001	-2.856029e+001	-7.473018e+001	-2.929336e+001	-3.913523e-001	-1.057562e+002
1955077000	-4.841934e-001	9.590670e+001	-8.496330e+001	-1.426578e+001	-7.456081e+001	-3.511197e+001	-3.896012e-001	-1.116125e+002
1997576500	-5.080912e-001	8.974082e+001	-7.373609e+001	-3.482379e+001	-7.579927e+001	4.434041e+000	-3.843129e-001	-1.173407e+002
2040076000	-5.191338e-001	8.342185e+001	-7.656395e+001	7.222302e+000	-8.120080e+001	-2.075549e+001	-3.779429e-001	-1.229675e+002
2082575500	-5.404782e-001	7.694938e+001	-7.457203e+001	-7.461746e+000	-7.769082e+001	2.202664e+001	-3.840978e-001	-1.285193e+002
2125075000	-5.769515e-001	7.045755e+001	-7.350952e+001	-1.285560e+001	-7.653834e+001	-5.966305e+001	-3.876430e-001	-1.339299e+002
2167574500	-5.948292e-001	6.379425e+001	-7.602471e+001	-3.215910e+001	-7.397300e+001	-4.239502e+001	-3.897172e-001	-1.393759e+002
2210074000	-6.237205e-001	5.690455e+001	-7.394673e+001	-5.696488e+001	-7.444496e+001	-1.236274e+001	-3.895261e-001	-1.448341e+002
2252573500	-6.504621e-001	4.985769e+001	-8.001789e+001	-4.295272e+001	-7.534619e+001	-3.275217e+001	-3.831980e-001	-1.501614e+002
2295073000	-6.726980e-001	4.277524e+001	-8.111605e+001	2.004031e+001	-7.844464e+001	-9.827892e+001	-3.887710e-001	-1.553611e+002
2337572500	-6.853304e-001	3.554319e+001	-8.684526e+001	-3.162241e+001	-7.570613e+001	-9.259817e+001	-3.945622e-001	-1.604627e+002
2380072000	-7.198587e-001	2.832480e+001	-7.802521e+001	-1.408152e+002	-8.020100e+001	-1.483393e+001	-3.889824e-001	-1.656773e+002
2422571500	-7.324950e-001	2.100926e+001	-7.799828e+001	-3.702441e+001	-8.193565e+001	-3.684992e+001	-4.129529e-001	-1.709972e+002
2465071000	-7.551096e-001	1.359373e+001	-7.643620e+001	-5.228879e+001	-8.209792e+001	-1.356674e+001	-3.867828e-001	-1.756179e+002
2507570500	-7.830094e-001	6.080573e+000	-7.388388e+001	-8.403557e+001	-7.915805e+001	-1.290441e+002	-3.817508e-001	1.794782e+002
2550070000	-8.028351e-001	-1.702808e+000	-7.541813e+001	-1.070992e+001	-8.288690e+001	7.150634e+000	-3.883575e-001	1.745713e+002
2592569500	-8.193662e-001	-9.586110e+000	-7.957061e+001	-2.243963e+001	-8.052306e+001	-1.326777e+001	-3.956064e-001	1.697640e+002
2635069000	-8.293351e-001	-1.754314e+001	-9.007833e+001	9.110730e+000	-7.801196e+001	2.581707e+001	-3.967062e-001	1.650440e+002
2677568500	-8.361766e-001	-2.544593e+001	-8.467231e+001	-3.147860e+001	-7.529026e+001	-4.851152e+001	-3.980023e-001	1.604167e+002
2720068000	-8.412304e-001	-3.328099e+001	-7.796805e+001	5.629335e+001	-7.293650e+001	-3.771972e+001	-3.928547e-001	1.557622e+002
2762567500	-9.168442e-001	-4.125612e+001	-8.274492e+001	4.147795e+001	-7.710613e+001	-2.020398e+001	-3.595340e-001	1.511758e+002
2805067000	-8.460495e-001	-4.882278e+001	-7.810798e+001	-1.817065e+001	-7.785969e+001	-2.492524e+001	-1.782964e-001	1.463855e+002
2847566500	-8.680487e-001	-5.695985e+001	-7.690254e+001	-4.228871e+001	-7.812928e+001	-3.903006e+001	-3.998170e-001	1.419880e+002
2890066000	-8.688231e-001	-6.498425e+001	-8.147623e+001	-8.061697e+001	-7.209967e+001	3.484564e+001	-4.190157e-001	1.373525e+002
2932565500	-8.684650e-001	-7.286861e+001	-7.485123e+001	-3.823261e+001	-7.279964e+001	-2.889999e+001	-4.303790e-001	1.328890e+002
2975065000	-8.606879e-001	-8.046771e+001	-7.669382e+001	-4.306059e+001	-7.231863e+001	-1.781951e+001	-4.381073e-001	1.283005e+002
3017564500	-8.525310e-001	-8.799483e+001	-7.061715e+001	-2.148248e+001	-7.161708e+001	-6.836296e+001	-4.519443e-001	1.237406e+002
3060064000	-8.426776e-001	-9.534133e+001	-7.400852e+001	-9.960204e-001	-7.322493e+001	-6.955095e+001	-4.502916e-001	1.191908e+002
3102563500	-8.337996e-001	-1.026611e+002	-6.827986e+001	-3.794051e+001	-7.421918e+001	-3.933815e+001	-4.550677e-001	1.146501e+002
3145063000	-8.112474e-001	-1.096207e+002	-7.203037e+001	-4.029925e+001	-7.991661e+001	-7.881578e+001	-4.329581e-001	1.103544e+002
3187562500	-7.676672e-001	-1.185056e+002	-8.214104e+001	5.360699e+000	-7.084862e+001	-8.269116e+001	-4.156430e-001	1.059580e+002
3230062000	-7.984438e-001	-1.245584e+002	-7.462385e+001	-5.787176e+001	-7.011358e+001	-2.276997e+001	-5.059002e-001	1.014502e+002
3272561500	-7.820239e-001	-1.312386e+002	-7.624883e+001	-4.201344e+001	-7.502200e+001	-4.538578e+001	-5.274979e-001	9.685040e+001
3315061000	-7.670051e-001	-1.377185e+002	-6.925428e+001	-3.553722e+001	-7.205908e+001	-6.372095e+001	-5.444686e-001	9.207280e+001
3357560500	-7.379511e-001	-1.441069e+002	-6.814784e+001	-4.088374e+001	-6.684780e+001	-5.709045e+001	-5.564346e-001	8.737979e+001
3400060000	-7.244595e-001	-1.504202e+002	-6.410656e+001	-4.748998e+001	-6.630686e+001	-6.244890e+001	-5.727051e-001	8.273999e+001
3442559500	-7.150032e-001	-1.566941e+002	-6.165306e+001	-8.899188e+001	-6.237072e+001	-8.886176e+001	-6.041005e-001	7.828299e+001
3485059000	-6.866882e-001	-1.627624e+002	-6.051080e+001	-1.492041e+002	-6.188864e+001	-1.408778e+002	-6.249065e-001	7.392790e+001
3527558500	-7.101518e-001	-1.689259e+002	-6.708652e+001	-1.748400e+002	-6.697919e+001	-1.618863e+002	-6.455460e-001	6.921024e+001
3570058000	-7.248125e-001	-1.749098e+002	-7.223999e+001	-1.667018e+002	-7.078483e+001	-1.723742e+002	-7.270726e-001	6.430021e+001
3612557500	-6.521898e-001	1.797662e+002	-7.417949e+001	-1.517256e+002	-7.297059e+001	1.730913e+002	-7.006511e-001	5.898762e+001
3655057000	-6.333604e-001	1.743628e+002	-7.407592e+001	-1.009361e+002	-7.563785e+001	1.685719e+002	-7.275878e-001	5.386149e+001
3697556500	-6.220818e-001	1.690516e+002	-8.124094e+001	1.664486e+002	-7.542951e+001	-9.904389e+001	-7.465526e-001	4.883272e+001
3740056000	-6.062038e-001	1.637999e+002	-7.377834e+001	-1.416121e+002	-9.663020e+001	1.502586e+002	-7.694453e-001	4.369919e+001
3782555500	-5.901342e-001	1.586159e+002	-7.929365e+001	-1.641400e+002	-7.925613e+001	1.718341e+002	-8.134432e-001	3.851061e+001
3825055000	-5.737994e-001	1.534499e+002	-7.169635e+001	-1.357095e+002	-8.093461e+001	-5.786977e+001	-8.721973e-001	3.290074e+001
3867554500	-5.812142e-001	1.484199e+002	-7.054574e+001	-8.858476e+001	-6.974344e+001	-8.828558e+001	-9.104429e-001	2.711574e+001
3910054000	-5.862034e-001	1.437438e+002	-6.941930e+001	-1.103070e+002	-7.135225e+001	-1.119410e+002	-9.530623e-001	2.122772e+001
3952553500	-5.754356e-001	1.389631e+002	-7.194627e+001	-1.367046e+002	-7.385679e+001	-1.192204e+002	-1.002423e+000	1.531429e+001
3995053000	-5.690469e-001	1.343984e+002	-6.993315e+001	-1.546695e+002	-8.034059e+001	-1.488391e+002	-1.034827e+000	9.252400e+000
4037552500	-5.469981e-001	1.298881e+002	-7.253685e+001	-1.152161e+002	-7.167704e+001	-8.493797e+001	-1.089109e+000	3.020447e+000
4080052000	-5.186020e-001	1.253427e+002	-7.044959e+001	-1.168198e+002	-7.102722e+001	-7.704615e+001	-1.163283e+000	-3.709713e+000
4122551500	-5.124109e-001	1.208077e+002	-6.844531e+001	-1.060904e+002	-6.887048e+001	-9.024756e+001	-1.231293e+000	-1.088607e+001
4165051000	-5.424318e-001	1.164964e+002	-6.600425e+001	-1.045923e+002	-6.737793e+001	-1.176039e+002	-1.281624e+000	-1.825530e+001
4207550500	-5.488279e-001	1.123604e+002	-6.443065e+001	-1.378273e+002	-6.710310e+001	-1.148721e+002	-1.336022e+000	-2.573994e+001
4250050000	-5.564919e-001	1.081000e+002	-6.452821e+001	-1.497915e+002	-6.367719e+001	-1.305321e+002	-1.397878e+000	-3.330615e+001
4292549500	-5.669261e-001	1.041986e+002	-6.286322e+001	-1.533813e+002	-6.050564e+001	-1.451345e+002	-1.495942e+000	-4.136696e+001
4335049000	-5.738840e-001	9.992354e+001	-6.117107e+001	-1.721490e+002	-5.947628e+001	-1.672866e+002	-1.628309e+000	-5.022668e+001
4377548500	-5.588300e-001	9.541371e+001	-6.240100e+001	1.466900e+002	-6.186225e+001	1.461099e+002	-1.640821e+000	-5.901933e+001
4420048000	-5.260331e-001	9.068063e+001	-6.771356e+001	1.295830e+002	-6.830669e+001	1.369139e+002	-1.695863e+000	-6.849116e+001
4462547500	-6.144706e-001	8.719078e+001	-7.235146e+001	1.652571e+002	-7.488085e+001	1.772170e+002	-1.739738e+000	-7.822115e+001
4505047000	-5.593099e-001	8.355973e+001	-7.052545e+001	-1.767830e+002	-7.306897e+001	-1.637130e+002	-1.787660e+000	-8.797084e+001
4547546500	-5.746651e-001	7.959754e+001	-7.125491e+001	1.660618e+002	-6.577639e+001	-1.728860e+002	-1.848470e+000	-9.796798e+001
4590046000	-6.028838e-001	7.563159e+001	-6.566978e+001	1.639260e+002	-6.276410e+001	1.701643e+002	-1.896331e+000	-1.084235e+002
4632545500	-6.220244e-001	7.170365e+001	-6.593689e+001	1.469483e+002	-6.398317e+001	1.520084e+002	-1.905320e+000	-1.191451e+002
4675045000	-7.120996e-001	6.791406e+001	-6.792694e+001	1.460802e+002	-6.817760e+001	1.203434e+002	-1.847548e+000	-1.298694e+002
4717544500	-6.456396e-001	6.404760e+001	-6.725875e+001	1.200615e+002	-7.192505e+001	1.210335e+002	-1.692885e+000	-1.404327e+002
4760044000	-7.553673e-001	5.944667e+001	-7.074550e+001	1.211322e+002	-7.155091e+001	1.477957e+002	-1.776383e+000	-1.509751e+002
4802543500	-6.200085e-001	5.639786e+001	-7.390304e+001	1.250589e+002	-7.023052e+001	1.024423e+002	-1.798576e+000	-1.613097e+002
4845043000	-6.467202e-001	5.243035e+001	-7.436402e+001	1.275978e+002	-7.162596e+001	1.026129e+002	-1.768134e+000	-1.714885e+002
4887542500	-6.769997e-001	4.842475e+001	-7.333321e+001	1.066195e+002	-6.918495e+001	1.086578e+002	-1.708578e+000	1.784142e+002
4930042000	-6.786610e-001	4.439312e+001	-6.811648e+001	1.156742e+002	-7.202559e+001	1.079134e+002	-1.618446e+000	1.688905e+002
4972541500	-6.663019e-001	4.043052e+001	-7.246159e+001	1.556848e+002	-7.480806e+001	9.134245e+001	-1.525241e+000	1.599391e+002
5015041000	-6.745624e-001	3.659631e+001	-7.205665e+001	1.302197e+002	-7.014408e+001	1.228670e+002	-1.469353e+000	1.512954e+002
5057540500	-7.000089e-001	3.279415e+001	-6.888297e+001	1.265490e+002	-7.032215e+001	1.243915e+002	-1.391025e+000	1.429469e+002
5100040000	-1.070060e+000	2.806172e+001	-6.467527e+001	1.303359e+002	-6.535247e+001	1.145954e+002	-1.397274e+000	1.353703e+002
5142539500	-8.399634e-001	2.469550e+001	-6.173425e+001	1.033744e+002	-5.952871e+001	9.388879e+001	-1.315623e+000	1.272630e+002
5185039000	-8.903407e-001	2.026426e+001	-5.664035e+001	6.327946e+001	-5.586685e+001	5.110175e+001	-1.217785e+000	1.199255e+002
5227538500	-8.857853e-001	1.633022e+001	-5.478040e+001	8.352516e+000	-5.494114e+001	-2.450293e+000	-1.167380e+000	1.130947e+002
5270038000	-8.500729e-001	1.227053e+001	-5.623599e+001	-3.008082e+001	-5.687548e+001	-4.024443e+001	-1.123621e+000	1.065722e+002
5312537500	-8.400600e-001	8.111144e+000	-5.758392e+001	-5.567278e+001	-5.924361e+001	-6.204648e+001	-1.087894e+000	1.002620e+002
5355037000	-8.700219e-001	3.962488e+000	-5.819816e+001	-6.636651e+001	-5.919518e+001	-7.129574e+001	-1.053674e+000	9.408270e+001
5397536500	-9.346322e-001	-4.045222e-001	-5.845563e+001	-8.061594e+001	-6.022755e+001	-7.585043e+001	-1.008181e+000	8.812368e+001
5440036000	-9.957183e-001	-5.062586e+000	-5.874881e+001	-9.626728e+001	-5.947519e+001	-1.029164e+002	-9.737370e-001	8.253789e+001
5482535500	-1.040280e+000	-9.809647e+000	-5.929670e+001	-1.180038e+002	-5.989885e+001	-1.172632e+002	-1.016026e+000	7.675475e+001
5525035000	-1.059010e+000	-1.528110e+001	-6.052040e+001	-1.376261e+002	-6.099282e+001	-1.380888e+002	-9.253969e-001	7.216067e+001
5567534500	-1.080115e+000	-2.033524e+001	-6.591544e+001	-1.517412e+002	-6.802056e+001	-1.601026e+002	-9.247581e-001	6.731740e+001
5610034000	-1.117463e+000	-2.542584e+001	-6.969754e+001	-7.170351e+001	-7.187201e+001	-8.219149e+001	-9.027567e-001	6.266242e+001
5652533500	-1.196215e+000	-3.060944e+001	-6.244090e+001	-8.209776e+001	-6.360858e+001	-8.025231e+001	-8.668413e-001	5.800176e+001
5695033000	-1.289489e+000	-3.607691e+001	-5.885783e+001	-9.491598e+001	-5.937313e+001	-9.244698e+001	-8.324510e-001	5.356402e+001
5737532500	-1.381896e+000	-4.189448e+001	-5.694467e+001	-1.139860e+002	-5.791529e+001	-1.141118e+002	-7.982666e-001	4.927654e+001
5780032000	-1.487566e+000	-4.814636e+001	-5.697768e+001	-1.306421e+002	-5.629778e+001	-1.308699e+002	-7.975257e-001	4.520146e+001
5822531500	-1.592002e+000	-5.484762e+001	-5.656968e+001	-1.475844e+002	-5.618327e+001	-1.432695e+002	-7.886459e-001	4.106567e+001
5865031000	-1.706444e+000	-6.199598e+001	-5.666390e+001	-1.595769e+002	-5.713295e+001	-1.605390e+002	-7.857720e-001	3.694488e+001
5907530500	-1.860573e+000	-6.940847e+001	-5.826170e+001	-1.704045e+002	-5.894147e+001	-1.674659e+002	-7.686644e-001	3.288909e+001
5950030000	-1.995785e+000	-7.711514e+001	-5.872847e+001	-1.582384e+002	-5.873179e+001	-1.605116e+002	-7.582259e-001	2.894844e+001
5992529500	-2.100263e+000	-8.520996e+001	-5.765614e+001	-1.674407e+002	-5.750060e+001	-1.640599e+002	-7.347238e-001	2.519429e+001
6035029000	-2.236040e+000	-9.388147e+001	-5.756924e+001	-1.736013e+002	-5.711886e+001	-1.758278e+002	-7.258999e-001	2.163287e+001
6077528500	-2.419825e+000	-1.031996e+002	-5.728287e+001	1.760904e+002	-5.656547e+001	1.781484e+002	-7.382233e-001	1.808516e+001
6120028000	-2.626191e+000	-1.134361e+002	-5.726461e+001	1.726439e+002	-5.619818e+001	1.736999e+002	-7.477090e-001	1.447391e+001
6162527500	-2.832553e+000	-1.246827e+002	-5.601381e+001	1.609262e+002	-5.588798e+001	1.659022e+002	-7.557402e-001	1.078305e+001
6205027000	-2.991169e+000	-1.366852e+002	-5.652642e+001	1.535149e+002	-5.636439e+001	1.466959e+002	-7.302028e-001	7.338122e+000
6247526500	-3.136300e+000	-1.493879e+002	-5.604919e+001	1.368731e+002	-5.599473e+001	1.344704e+002	-7.403707e-001	3.574703e+000
6290026000	-3.182638e+000	-1.622581e+002	-5.725149e+001	1.133000e+002	-5.615862e+001	1.132711e+002	-7.257076e-001	1.956112e-001
6332525500	-3.310540e+000	-1.752533e+002	-5.815511e+001	8.567034e+001	-5.883648e+001	9.090417e+001	-7.318662e-001	-3.098653e+000
6375025000	-3.387721e+000	1.716315e+002	-5.963301e+001	6.463197e+001	-6.125230e+001	6.008753e+001	-7.345548e-001	-6.337959e+000
6417524500	-3.421175e+000	1.575716e+002	-6.082397e+001	1.822985e+001	-6.182364e+001	1.067519e+001	-7.549941e-001	-9.625433e+000
