!Agilent Technologies,E5071C,MY46101104,A.08.01
!Date: Mon Jan 01 00:38:59 2001
!Data & Calibration Information:
!Freq	S11:SOLT2(ON)	S21:SOLT2(ON)	S12:SOLT2(ON)	S22:SOLT2(ON)
# Hz S RI R 50
100000	1.011335e+000	-8.700397e-002	-4.949965e-004	-2.328992e-004	1.354745e-003	-2.600087e-004	-8.804031e-001	-2.141767e-002
42599500	1.009864e+000	-5.298082e-002	-2.877157e-004	5.499784e-004	-5.794346e-004	-6.891970e-004	-8.825969e-001	1.548935e-002
85099000	9.536230e-001	-1.170613e-001	5.053586e-004	2.563966e-004	-5.601776e-004	6.784214e-004	-9.410195e-001	7.183342e-002
127598500	9.407732e-001	-3.200032e-001	3.002477e-004	-4.066518e-004	7.734782e-004	3.197708e-004	-1.008691e+000	1.954907e-001
170098000	9.385626e-001	-4.731713e-001	-4.103521e-004	-1.784587e-004	1.176568e-004	-7.520016e-004	-1.009559e+000	3.841895e-001
212597500	8.806386e-001	-5.000974e-001	-2.851843e-004	3.351508e-004	-6.502076e-004	1.926775e-004	-9.118497e-001	5.520892e-001
255097000	7.937138e-001	-5.242412e-001	2.362445e-004	2.889263e-004	3.209210e-004	5.411543e-004	-7.873721e-001	6.461138e-001
297596500	7.478873e-001	-6.146199e-001	2.108926e-004	-2.459679e-004	3.648565e-004	-3.617499e-004	-6.958381e-001	6.974883e-001
340096000	7.038564e-001	-7.181072e-001	-2.033194e-004	-2.471721e-004	-3.586533e-004	-1.529179e-004	-6.339955e-001	7.463391e-001
382595500	6.003858e-001	-7.913563e-001	-2.151718e-004	1.858360e-004	-4.899658e-005	3.577220e-004	-5.744059e-001	8.055376e-001
425095000	4.782018e-001	-8.526908e-001	1.333281e-004	1.999182e-004	2.665970e-004	5.592816e-005	-4.975124e-001	8.606888e-001
467594500	3.921422e-001	-9.031898e-001	1.468501e-004	-1.178021e-004	-9.531144e-005	-1.894107e-004	-4.000378e-001	9.023975e-001
510094000	3.143510e-001	-9.350485e-001	-1.499767e-005	-1.192776e-004	-4.004172e-005	1.044780e-005	-2.969931e-001	9.313992e-001
552593500	2.156121e-001	-9.628152e-001	-8.000614e-006	5.902702e-005	-6.043620e-005	3.405772e-006	-1.943662e-001	9.573591e-001
595093000	1.171216e-001	-9.783095e-001	5.040644e-005	1.026093e-004	-5.170882e-005	3.570914e-005	-8.806362e-002	9.719807e-001
637592500	1.973080e-002	-9.844131e-001	-1.973774e-005	4.216174e-005	5.169362e-005	8.862318e-005	2.043160e-002	9.747876e-001
680092000	-7.828855e-002	-9.814226e-001	4.339351e-005	-1.221684e-006	-5.696658e-005	-7.789365e-007	1.285763e-001	9.659088e-001
722591500	-1.748948e-001	-9.675813e-001	8.997689e-006	-5.604357e-005	-1.521774e-005	2.464274e-005	2.336357e-001	9.447945e-001
765091000	-2.703166e-001	-9.437551e-001	1.098493e-004	8.890054e-005	-4.250154e-005	-1.555767e-005	3.369695e-001	9.123578e-001
807590500	-3.617096e-001	-9.121551e-001	-1.031783e-004	2.464035e-005	4.257031e-005	1.366404e-004	4.362263e-001	8.677316e-001
850090000	-4.491399e-001	-8.695180e-001	-4.584125e-005	1.106746e-005	-1.856228e-004	-6.346140e-005	5.287132e-001	8.100589e-001
892589500	-5.305658e-001	-8.202193e-001	-1.026639e-004	1.906163e-005	-1.369988e-004	4.559847e-005	6.166504e-001	7.375455e-001
935089000	-6.070072e-001	-7.650175e-001	-9.355099e-005	-8.781262e-005	-3.151908e-005	2.187292e-005	7.014348e-001	6.664710e-001
977588500	-6.770772e-001	-7.025291e-001	-2.312059e-005	3.687073e-005	-3.405218e-005	2.798350e-005	7.731776e-001	5.802919e-001
1020088000	-7.416878e-001	-6.330520e-001	-1.484085e-004	-1.023422e-005	3.408463e-005	-1.452777e-004	8.341153e-001	4.874398e-001
1062587500	-7.986017e-001	-5.586496e-001	7.069270e-006	3.766147e-005	-6.223161e-005	1.098360e-004	8.836463e-001	3.870906e-001
1105087000	-8.485433e-001	-4.790859e-001	-6.701859e-005	3.396673e-005	1.099005e-006	2.500250e-005	9.212146e-001	2.813234e-001
1147586500	-8.890218e-001	-3.955158e-001	-1.003247e-004	-3.389449e-005	-5.456946e-005	-8.536163e-005	9.478081e-001	1.706910e-001
1190086000	-9.212599e-001	-3.066195e-001	3.035256e-005	2.941681e-005	-1.298391e-005	-2.581796e-006	9.597054e-001	5.797671e-002
1232585500	-9.454177e-001	-2.143973e-001	-2.051009e-005	9.618204e-005	8.870437e-005	1.073374e-004	9.604507e-001	-5.379392e-002
1275085000	-9.608391e-001	-1.209878e-001	-4.492296e-005	-3.417703e-006	8.418465e-005	2.052001e-004	9.474710e-001	-1.612380e-001
1317584500	-9.671314e-001	-3.279378e-002	4.247381e-007	9.409424e-005	-5.504337e-005	1.704408e-004	9.209555e-001	-2.719514e-001
1360084000	-9.652527e-001	5.860530e-002	4.766907e-005	1.200047e-004	4.851929e-007	9.974389e-005	8.808399e-001	-3.800273e-001
1402583500	-9.545187e-001	1.503544e-001	7.643093e-005	4.876930e-005	5.657488e-005	1.690210e-004	8.298824e-001	-4.796321e-001
1445083000	-9.348824e-001	2.422172e-001	1.459819e-004	8.923353e-005	2.322601e-005	2.768371e-005	7.688593e-001	-5.716604e-001
1487582500	-9.059076e-001	3.299682e-001	1.874510e-004	1.090453e-004	3.183060e-006	-3.366526e-005	6.979301e-001	-6.557446e-001
1530082000	-8.679188e-001	4.159712e-001	1.599447e-004	8.936528e-005	1.450916e-004	1.159454e-004	6.185162e-001	-7.306176e-001
1572581500	-8.210962e-001	4.992997e-001	1.377816e-004	2.131822e-004	-1.064269e-005	6.541636e-005	5.318925e-001	-7.949880e-001
1615081000	-7.670308e-001	5.774135e-001	1.566356e-004	-2.515055e-006	1.968699e-004	8.499463e-005	4.392114e-001	-8.489458e-001
1657580500	-7.047427e-001	6.488306e-001	7.731424e-005	1.143239e-004	1.352685e-004	6.162526e-005	3.406034e-001	-8.930884e-001
1700080000	-6.361351e-001	7.134456e-001	7.824656e-005	2.509987e-005	1.423606e-004	-1.460957e-006	2.418599e-001	-9.251863e-001
1742579500	-5.603492e-001	7.728247e-001	1.902821e-004	5.523992e-005	2.192733e-004	9.474202e-005	1.398561e-001	-9.458613e-001
1785079000	-4.780475e-001	8.237631e-001	6.799738e-005	6.680530e-005	1.060949e-004	1.675090e-005	3.819334e-002	-9.554699e-001
1827578500	-3.898043e-001	8.668090e-001	1.654382e-004	1.542412e-005	1.282973e-004	-1.271311e-004	-6.354857e-002	-9.537676e-001
1870078000	-2.963354e-001	9.006297e-001	1.286356e-004	-9.361701e-005	2.217611e-004	4.879936e-005	-1.636994e-001	-9.415066e-001
1912577500	-1.986921e-001	9.256881e-001	1.322345e-004	-1.489631e-005	2.075597e-004	6.702517e-005	-2.595525e-001	-9.198394e-001
1955077000	-9.717075e-002	9.400905e-001	1.043287e-004	-4.889675e-005	2.484888e-004	-2.105023e-005	-3.513913e-001	-8.890827e-001
1997576500	3.781992e-003	9.431773e-001	2.098411e-004	-7.271005e-005	1.527345e-004	-6.079925e-005	-4.387717e-001	-8.498378e-001
2040076000	1.078863e-001	9.358485e-001	1.048579e-004	1.372169e-005	1.480265e-004	-2.431117e-005	-5.207376e-001	-8.034976e-001
2082575500	2.122357e-001	9.153651e-001	9.028371e-005	9.079785e-006	1.921226e-004	-1.717525e-005	-5.954228e-001	-7.486330e-001
2125075000	3.130859e-001	8.816246e-001	1.850381e-004	6.101197e-006	1.091377e-004	-8.551504e-005	-6.631494e-001	-6.891381e-001
2167574500	4.127330e-001	8.380057e-001	1.186707e-004	-9.537427e-005	9.500777e-005	-6.870196e-005	-7.257168e-001	-6.228667e-001
2210074000	5.087917e-001	7.797987e-001	7.907856e-005	-1.653603e-004	1.355610e-004	-1.036153e-004	-7.814187e-001	-5.510126e-001
2252573500	5.987982e-001	7.086133e-001	9.464763e-005	-1.916294e-004	1.848930e-004	3.914811e-005	-8.302154e-001	-4.762160e-001
2295073000	6.795664e-001	6.281572e-001	5.459568e-005	-8.266736e-005	-9.619808e-005	-1.062172e-005	-8.690185e-001	-3.990527e-001
2337572500	7.522410e-001	5.369696e-001	1.218998e-004	-7.787303e-005	1.020692e-005	-1.647095e-004	-9.005395e-001	-3.201117e-001
2380072000	8.104437e-001	4.364502e-001	-8.212053e-006	-9.411703e-005	6.316879e-005	-3.097890e-005	-9.267991e-001	-2.370387e-001
2422571500	8.582895e-001	3.291852e-001	1.683942e-004	-9.092288e-005	3.080982e-005	5.424664e-006	-9.417947e-001	-1.495733e-001
2465071000	8.910936e-001	2.151967e-001	5.324210e-005	-1.299237e-004	-8.895242e-005	-4.017778e-005	-9.536886e-001	-7.355605e-002
2507570500	9.085090e-001	9.660010e-002	1.184270e-004	-2.928546e-005	-5.758072e-005	-6.116435e-005	-9.569723e-001	8.645498e-003
2550070000	9.110646e-001	-2.758568e-002	1.800473e-004	-8.557386e-005	1.060946e-004	4.338336e-005	-9.527576e-001	9.044414e-002
2592569500	8.971416e-001	-1.522785e-001	-8.830682e-006	5.549593e-006	3.351657e-005	1.509472e-005	-9.410952e-001	1.693331e-001
2635069000	8.668200e-001	-2.744358e-001	1.281427e-004	-2.164373e-005	1.347071e-004	-5.006729e-005	-9.230446e-001	2.460079e-001
2677568500	8.194723e-001	-3.903419e-001	5.350190e-005	-7.898299e-005	9.353642e-005	-4.681201e-005	-9.001919e-001	3.199026e-001
2720068000	7.582082e-001	-4.981332e-001	5.127723e-005	3.109611e-005	1.538190e-004	-4.428749e-005	-8.719634e-001	3.918663e-001
2762567500	6.761804e-001	-5.935404e-001	4.068225e-005	7.129916e-005	1.129126e-004	-3.696904e-005	-8.405712e-001	4.621713e-001
2805067000	5.970411e-001	-6.830447e-001	1.593554e-005	-1.417314e-004	6.595834e-005	-2.247833e-005	-8.162186e-001	5.419913e-001
2847566500	4.931288e-001	-7.585722e-001	7.481694e-005	-1.131037e-004	1.969725e-004	3.793949e-005	-7.525144e-001	5.877742e-001
2890066000	3.821780e-001	-8.199712e-001	1.224735e-004	-7.010984e-005	9.326023e-005	1.100088e-004	-7.010639e-001	6.448148e-001
2932565500	2.660293e-001	-8.650069e-001	8.123852e-005	-1.510453e-005	3.067201e-004	-4.722239e-005	-6.477217e-001	6.971584e-001
2975065000	1.497612e-001	-8.934707e-001	4.758784e-005	-2.173316e-005	1.910407e-004	-1.978274e-004	-5.895747e-001	7.461430e-001
3017564500	3.115668e-002	-9.058999e-001	2.217256e-004	-6.968231e-005	-3.044974e-005	-1.370612e-004	-5.281382e-001	7.900757e-001
3060064000	-8.461177e-002	-9.035667e-001	2.567281e-004	-9.282896e-006	5.576426e-005	-2.157744e-004	-4.633072e-001	8.286558e-001
3102563500	-1.995386e-001	-8.866110e-001	3.106379e-004	-2.450727e-004	8.933577e-005	-2.348629e-004	-3.957973e-001	8.623500e-001
3145063000	-3.057898e-001	-8.580985e-001	3.166547e-004	-1.887444e-004	3.173770e-005	-1.552901e-004	-3.312518e-001	8.916289e-001
3187562500	-4.368735e-001	-8.041593e-001	3.727969e-005	-8.712444e-005	8.399988e-005	-2.002366e-004	-2.626322e-001	9.165367e-001
3230062000	-5.174770e-001	-7.506005e-001	2.070278e-004	-2.489576e-004	2.074033e-004	-1.070796e-004	-1.875622e-001	9.247929e-001
3272561500	-6.025399e-001	-6.866566e-001	7.030451e-005	-2.405646e-004	3.574631e-005	-9.533328e-005	-1.123222e-001	9.351029e-001
3315061000	-6.776703e-001	-6.154404e-001	1.749791e-004	3.546504e-005	6.473292e-005	-3.001894e-004	-3.443691e-002	9.384726e-001
3357560500	-7.437513e-001	-5.385119e-001	1.449441e-004	-3.401440e-004	2.092570e-004	-3.078781e-004	4.256706e-002	9.367599e-001
3400060000	-8.002232e-001	-4.540645e-001	3.067123e-004	-5.794959e-004	2.192490e-004	-3.434026e-004	1.174838e-001	9.289180e-001
3442559500	-8.454979e-001	-3.640454e-001	9.832871e-005	-7.826808e-004	4.998002e-005	-7.047454e-004	1.891147e-001	9.132700e-001
3485059000	-8.821066e-001	-2.736321e-001	-7.020872e-004	-5.372792e-004	-5.661137e-004	-4.740997e-004	2.574389e-001	8.942425e-001
3527558500	-9.044133e-001	-1.763918e-001	-4.565146e-004	-1.405843e-005	-3.313446e-004	-2.125410e-004	3.292883e-001	8.679203e-001
3570058000	-9.164125e-001	-8.087711e-002	-2.291855e-004	3.161650e-005	-9.296052e-005	-5.769496e-005	3.988941e-001	8.293144e-001
3612557500	-9.279824e-001	4.443160e-003	-1.674492e-004	-1.018794e-004	-2.262594e-004	3.519928e-005	4.745760e-001	7.906539e-001
3655057000	-9.249187e-001	9.222403e-002	-5.346738e-005	-1.125244e-004	-2.089597e-004	-8.661531e-005	5.424590e-001	7.431803e-001
3697556500	-9.130962e-001	1.776630e-001	-1.057936e-004	6.139190e-006	-9.187391e-005	-1.158274e-004	6.038927e-001	6.913610e-001
3740056000	-8.953064e-001	2.603910e-001	-1.396090e-004	8.541292e-005	4.877785e-005	-9.553180e-005	6.614950e-001	6.325012e-001
3782555500	-8.697015e-001	3.409873e-001	-1.342706e-005	-1.760702e-004	-8.210907e-005	-1.625904e-005	7.123476e-001	5.669104e-001
3825055000	-8.368927e-001	4.187097e-001	-2.176875e-004	-2.607713e-004	1.224834e-005	-2.598798e-005	7.592995e-001	4.915508e-001
3867554500	-7.964345e-001	4.899550e-001	1.005338e-005	-2.609489e-004	-3.734797e-005	-2.555457e-004	8.014739e-001	4.107139e-001
3910054000	-7.534935e-001	5.538115e-001	-3.069701e-004	-2.408893e-004	-4.916218e-005	-2.060267e-004	8.350669e-001	3.248569e-001
3952553500	-7.052577e-001	6.145751e-001	-1.907943e-004	-3.213776e-004	-1.422078e-004	-1.483220e-004	8.591114e-001	2.356348e-001
3995053000	-6.552047e-001	6.687678e-001	-2.205014e-004	-1.962090e-004	-1.853371e-004	-1.342042e-004	8.761514e-001	1.433560e-001
4037552500	-6.017474e-001	7.203728e-001	-2.811234e-004	-2.317543e-004	-5.110559e-005	-2.425922e-004	8.810469e-001	4.646564e-002
4080052000	-5.445377e-001	7.685587e-001	-1.567671e-004	-2.895036e-004	-1.199867e-004	-2.555221e-004	8.730503e-001	-5.651280e-002
4122551500	-4.823352e-001	8.093252e-001	-1.578445e-004	-2.276551e-004	-4.969622e-005	-3.047769e-004	8.523369e-001	-1.631502e-001
4165051000	-4.184037e-001	8.405375e-001	-1.079508e-004	-5.107437e-004	-2.370221e-004	-4.169798e-004	8.193820e-001	-2.699535e-001
4207550500	-3.565188e-001	8.681498e-001	-4.789607e-004	-5.515041e-004	-1.648896e-004	-5.087644e-004	7.721850e-001	-3.719146e-001
4250050000	-2.909058e-001	8.916366e-001	-5.647736e-004	-4.618205e-004	-4.424836e-004	-4.382013e-004	7.118346e-001	-4.672375e-001
4292549500	-2.293255e-001	9.083033e-001	-6.469103e-004	-3.156257e-004	-8.742129e-004	-4.811506e-004	6.313441e-001	-5.562049e-001
4335049000	-1.606915e-001	9.224256e-001	-7.989837e-004	-4.004904e-005	-1.021316e-003	-1.777388e-004	5.308131e-001	-6.371154e-001
4377548500	-8.842351e-002	9.333564e-001	-6.379483e-004	4.301558e-004	-8.372854e-004	5.179073e-004	4.268838e-001	-7.094641e-001
4420048000	-1.086544e-002	9.410779e-001	-1.054066e-004	3.736125e-004	-2.191001e-004	3.281795e-004	3.020088e-001	-7.653467e-001
4462547500	4.608164e-002	9.301146e-001	-1.804445e-004	1.590884e-004	-2.009580e-004	7.885049e-005	1.672772e-001	-8.011246e-001
4505047000	1.057969e-001	9.316867e-001	-3.250841e-004	-2.718751e-005	-2.306620e-004	1.126303e-004	2.862429e-002	-8.126580e-001
4547546500	1.693547e-001	9.206465e-001	-1.938373e-004	1.023989e-004	-3.169776e-004	3.796708e-005	-1.119339e-001	-8.001135e-001
4590046000	2.319186e-001	9.032360e-001	-4.258291e-004	2.027152e-004	-6.003736e-004	9.615143e-005	-2.541030e-001	-7.623459e-001
4632545500	2.927299e-001	8.835557e-001	-3.720027e-004	2.579566e-004	-6.372799e-004	3.199984e-004	-3.910113e-001	-7.009896e-001
4675045000	3.468630e-001	8.535798e-001	-3.752187e-004	2.974905e-004	-1.548534e-004	3.184272e-004	-5.179627e-001	-6.202688e-001
4717544500	4.065863e-001	8.344288e-001	-2.345390e-004	2.877126e-004	-3.120256e-005	2.554478e-004	-6.339517e-001	-5.243701e-001
4760044000	4.662398e-001	7.892474e-001	-9.349462e-005	2.858856e-004	-1.420996e-004	7.569074e-005	-7.125879e-001	-3.952068e-001
4802543500	5.156287e-001	7.747347e-001	-2.617886e-005	2.076879e-004	-1.193795e-004	2.263946e-004	-7.699364e-001	-2.602344e-001
4845043000	5.661887e-001	7.351790e-001	-1.375809e-004	1.119569e-004	-1.107159e-004	2.828595e-004	-8.067164e-001	-1.202570e-001
4887542500	6.142121e-001	6.915259e-001	-1.267539e-004	2.079045e-004	-1.425650e-004	1.448766e-004	-8.207746e-001	2.270128e-002
4930042000	6.610330e-001	6.466709e-001	-1.023262e-004	2.296696e-004	-1.922499e-004	1.821259e-004	-8.144296e-001	1.601176e-001
4972541500	7.049484e-001	6.003546e-001	-1.052506e-004	1.958858e-005	-1.610111e-004	2.194696e-004	-7.869488e-001	2.880774e-001
5015041000	7.428657e-001	5.510849e-001	-7.167501e-005	8.775106e-005	-1.185288e-004	1.487461e-004	-7.404744e-001	4.058996e-001
5057540500	7.755738e-001	4.991284e-001	-2.137921e-004	2.895249e-004	-9.596316e-005	1.970283e-004	-6.800133e-001	5.136124e-001
5100040000	7.802254e-001	4.152996e-001	-3.339970e-004	4.338735e-004	-2.581368e-004	5.312135e-004	-6.053322e-001	5.983414e-001
5142539500	8.250647e-001	3.783208e-001	-1.623210e-004	8.490310e-004	-2.439464e-006	1.025724e-003	-5.200971e-001	6.839540e-001
5185039000	8.466307e-001	3.119837e-001	8.309875e-004	1.353298e-003	9.840303e-004	1.201701e-003	-4.334454e-001	7.529403e-001
5227538500	8.667406e-001	2.533814e-001	1.844975e-003	2.633566e-004	1.813666e-003	-3.082777e-005	-3.431312e-001	8.039492e-001
5270038000	8.857834e-001	1.921814e-001	1.373595e-003	-7.515376e-004	1.087774e-003	-8.651563e-004	-2.506230e-001	8.418007e-001
5312537500	8.984416e-001	1.274819e-001	8.185657e-004	-1.045751e-003	6.342883e-004	-9.831867e-004	-1.572263e-001	8.681324e-001
5355037000	9.022115e-001	6.171435e-002	5.602094e-004	-1.125048e-003	4.250878e-004	-1.034155e-003	-6.344951e-002	8.837858e-001
5397536500	8.978178e-001	-6.942622e-003	2.573305e-004	-1.237501e-003	2.827756e-004	-1.080455e-003	2.897020e-002	8.900470e-001
5440036000	8.877487e-001	-7.887115e-002	-1.437122e-004	-1.232525e-003	-1.797491e-004	-1.108011e-003	1.158799e-001	8.863411e-001
5482535500	8.735542e-001	-1.513601e-001	-4.906050e-004	-1.000781e-003	-4.996823e-004	-8.972146e-004	2.036976e-001	8.661531e-001
5525035000	8.534875e-001	-2.337557e-001	-6.373198e-004	-6.179572e-004	-7.488771e-004	-5.486327e-004	2.750880e-001	8.559390e-001
5567534500	8.274415e-001	-3.069132e-001	-3.515519e-004	-2.246438e-004	-3.913441e-004	-2.250123e-004	3.461196e-001	8.297285e-001
5610034000	7.939046e-001	-3.776372e-001	3.370924e-005	-3.254328e-004	-8.329551e-006	-2.450578e-004	4.131756e-001	8.007756e-001
5652533500	7.497149e-001	-4.437784e-001	7.765042e-005	-7.710215e-004	3.970087e-005	-7.136061e-004	4.795576e-001	7.677342e-001
5695033000	6.959065e-001	-5.079672e-001	-2.075711e-004	-1.287975e-003	-1.168171e-004	-1.151096e-003	5.393542e-001	7.313687e-001
5737532500	6.342469e-001	-5.698375e-001	-5.611702e-004	-1.310848e-003	-5.432226e-004	-1.266916e-003	5.943838e-001	6.910495e-001
5780032000	5.616071e-001	-6.271814e-001	-8.727063e-004	-1.219277e-003	-1.072450e-003	-1.183631e-003	6.422486e-001	6.474886e-001
5822531500	4.784757e-001	-6.803578e-001	-1.391977e-003	-8.526600e-004	-1.420069e-003	-1.035729e-003	6.883776e-001	6.004446e-001
5865031000	3.850092e-001	-7.251818e-001	-1.439568e-003	-5.638319e-004	-1.430015e-003	-5.238344e-004	7.296716e-001	5.493559e-001
5907530500	2.830373e-001	-7.550955e-001	-1.318613e-003	-2.559884e-004	-1.216481e-003	-3.118787e-004	7.679850e-001	4.975638e-001
5950030000	1.765683e-001	-7.738890e-001	-1.296686e-003	-3.307863e-004	-1.278920e-003	-2.955995e-004	8.012734e-001	4.439498e-001
5992529500	6.530150e-002	-7.818194e-001	-1.501930e-003	-2.346611e-004	-1.425073e-003	-1.980295e-004	8.310980e-001	3.914717e-001
6035029000	-5.289432e-002	-7.704844e-001	-1.461113e-003	-1.069683e-004	-1.576732e-003	3.205027e-005	8.545479e-001	3.390994e-001
6077528500	-1.733288e-001	-7.362989e-001	-1.480794e-003	9.529942e-005	-1.561759e-003	1.574772e-004	8.727483e-001	2.857140e-001
6120028000	-2.941529e-001	-6.773644e-001	-1.540308e-003	2.951637e-004	-1.586529e-003	3.263364e-004	8.884545e-001	2.295349e-001
6162527500	-4.110493e-001	-5.927936e-001	-1.597520e-003	6.513925e-004	-1.547041e-003	5.969279e-004	9.002427e-001	1.720716e-001
6205027000	-5.155460e-001	-4.850316e-001	-1.402061e-003	1.049585e-003	-1.439393e-003	9.622602e-004	9.114890e-001	1.180434e-001
6247526500	-5.993390e-001	-3.536623e-001	-1.154662e-003	1.510738e-003	-1.158515e-003	1.412265e-003	9.161144e-001	5.825698e-002
6290026000	-6.590253e-001	-2.104308e-001	-5.191504e-004	1.435824e-003	-4.840957e-004	1.580722e-003	9.193619e-001	3.955208e-003
6332525500	-6.801402e-001	-5.537906e-002	2.084470e-004	1.449418e-003	7.705866e-005	1.386124e-003	9.174839e-001	-4.852972e-002
6375025000	-6.688004e-001	9.906026e-002	4.868964e-004	1.077397e-003	5.819435e-004	9.489254e-004	9.131489e-001	-1.005792e-001
6417524500	-6.222807e-001	2.584038e-001	8.860665e-004	4.379799e-004	9.026246e-004	3.649266e-004	9.041745e-001	-1.526760e-001
6460024000	-5.448376e-001	4.052750e-001	1.090150e-003	-3.839011e-004	1.092935e-003	-3.832049e-004	8.903312e-001	-2.056336e-001
6502523500	-4.446341e-001	5.314767e-001	9.935261e-004	-1.501588e-003	1.088801e-003	-1.289280e-003	8.741908e-001	-2.603376e-001
