!Agilent Technologies,E5071C,MY46101104,A.08.01
!Date: Mon Jan 01 00:32:46 2001
!Data & Calibration Information:
!Freq	S11:SOLT2(ON)	S21:SOLT2(ON)	S12:SOLT2(ON)	S22:SOLT2(ON)
# Hz S dB R 50
100000	-3.218298e+001	8.496235e+001	1.696030e-001	3.407029e-001	2.422217e-001	1.931236e+000	-2.358138e+001	2.514130e+001
42599500	-2.045343e+001	5.843295e+001	9.269519e-002	-4.991781e+000	1.739614e-001	-4.528395e+000	-2.272435e+001	-3.001190e+001
85099000	-2.248551e+001	9.787089e+001	7.555220e-002	-1.014318e+001	4.664938e-002	-9.763418e+000	-2.165764e+001	-6.217454e+001
127598500	-2.911598e+001	-1.681470e+002	5.629566e-002	-1.534182e+001	-2.925550e-005	-1.445122e+001	-2.194037e+001	-9.823659e+001
170098000	-2.964973e+001	-5.206589e+001	6.610612e-003	-2.038883e+001	1.583947e-002	-1.944933e+001	-2.317422e+001	-1.359538e+002
212597500	-2.474185e+001	3.532076e+001	-2.780941e-002	-2.523471e+001	-8.331756e-003	-2.478303e+001	-2.514690e+001	1.738994e+002
255097000	-2.240207e+001	6.254720e+001	-6.435013e-002	-3.003415e+001	-7.702336e-002	-2.975540e+001	-2.510911e+001	1.069097e+002
297596500	-2.563933e+001	2.680826e+001	-8.098544e-002	-3.465215e+001	-9.511748e-002	-3.430314e+001	-2.388805e+001	5.138617e+001
340096000	-2.644369e+001	-3.138314e+001	-7.297029e-002	-3.952352e+001	-7.736986e-002	-3.924205e+001	-2.713938e+001	1.834617e+000
382595500	-3.587710e+001	-1.612368e+002	-8.863308e-002	-4.453965e+001	-8.911847e-002	-4.432625e+001	-3.719571e+001	-8.246966e+001
425095000	-2.715635e+001	1.520142e+002	-1.005105e-001	-4.932206e+001	-1.033225e-001	-4.926276e+001	-4.026082e+001	1.782281e+002
467594500	-3.445459e+001	1.323734e+002	-1.190283e-001	-5.424651e+001	-1.236546e-001	-5.422473e+001	-4.414208e+001	-4.665076e+001
510094000	-3.646582e+001	6.884707e+001	-1.404828e-001	-5.910796e+001	-1.450536e-001	-5.910668e+001	-3.379436e+001	-5.798225e+001
552593500	-3.450632e+001	6.045816e+001	-1.529079e-001	-6.396771e+001	-1.569590e-001	-6.396006e+001	-3.287366e+001	-5.509018e+001
595093000	-3.282289e+001	4.873931e+001	-1.622718e-001	-6.885967e+001	-1.632380e-001	-6.888253e+001	-3.123948e+001	-5.397074e+001
637592500	-3.082550e+001	3.692220e+001	-1.747716e-001	-7.376794e+001	-1.797492e-001	-7.376444e+001	-2.994985e+001	-5.314986e+001
680092000	-2.914984e+001	2.684894e+001	-1.853146e-001	-7.861470e+001	-1.935629e-001	-7.866845e+001	-2.839108e+001	-5.283515e+001
722591500	-2.777368e+001	1.710270e+001	-1.953080e-001	-8.349656e+001	-2.046622e-001	-8.356222e+001	-2.712793e+001	-5.564606e+001
765091000	-2.645482e+001	9.793065e+000	-2.016227e-001	-8.836373e+001	-2.207743e-001	-8.837728e+001	-2.598610e+001	-5.895466e+001
807590500	-2.524242e+001	2.405012e+000	-2.038973e-001	-9.329173e+001	-2.229463e-001	-9.323570e+001	-2.483517e+001	-6.271887e+001
850090000	-2.436094e+001	-4.945393e+000	-2.207293e-001	-9.825735e+001	-2.218393e-001	-9.819359e+001	-2.371786e+001	-6.756363e+001
892589500	-2.316505e+001	-1.285194e+001	-2.470083e-001	-1.031427e+002	-2.404279e-001	-1.031644e+002	-2.219083e+001	-7.324286e+001
935089000	-2.194528e+001	-2.117764e+001	-2.722776e-001	-1.079835e+002	-2.776179e-001	-1.081173e+002	-2.174037e+001	-7.373810e+001
977588500	-2.088892e+001	-2.959197e+001	-2.887567e-001	-1.127316e+002	-3.211166e-001	-1.128799e+002	-2.077995e+001	-7.752581e+001
1020088000	-2.013123e+001	-3.720611e+001	-2.875877e-001	-1.175152e+002	-3.411066e-001	-1.174839e+002	-1.992033e+001	-8.215812e+001
1062587500	-1.921863e+001	-4.391519e+001	-2.788739e-001	-1.223832e+002	-3.205587e-001	-1.221517e+002	-1.910472e+001	-8.683265e+001
1105087000	-1.846596e+001	-5.118737e+001	-2.777248e-001	-1.274237e+002	-2.794581e-001	-1.271254e+002	-1.835181e+001	-9.167722e+001
1147586500	-1.769228e+001	-5.861160e+001	-3.013733e-001	-1.323856e+002	-2.824756e-001	-1.323044e+002	-1.760897e+001	-9.672670e+001
1190086000	-1.719807e+001	-6.550156e+001	-3.314905e-001	-1.373212e+002	-3.318207e-001	-1.374005e+002	-1.701223e+001	-1.016607e+002
1232585500	-1.673336e+001	-7.230585e+001	-3.518610e-001	-1.422874e+002	-3.932030e-001	-1.423577e+002	-1.658462e+001	-1.058299e+002
1275085000	-1.619612e+001	-7.884555e+001	-4.042186e-001	-1.471793e+002	-4.459181e-001	-1.470330e+002	-1.611444e+001	-1.119207e+002
1317584500	-1.568512e+001	-8.563119e+001	-4.542003e-001	-1.517282e+002	-4.749716e-001	-1.513737e+002	-1.547728e+001	-1.163364e+002
1360084000	-1.499365e+001	-9.270204e+001	-4.281286e-001	-1.561355e+002	-4.252843e-001	-1.558019e+002	-1.489102e+001	-1.208546e+002
1402583500	-1.448239e+001	-9.954455e+001	-3.665123e-001	-1.610803e+002	-3.430765e-001	-1.608396e+002	-1.440681e+001	-1.262233e+002
1445083000	-1.413587e+001	-1.065093e+002	-3.522803e-001	-1.663434e+002	-3.373565e-001	-1.663029e+002	-1.404140e+001	-1.316911e+002
1487582500	-1.389780e+001	-1.131037e+002	-3.767410e-001	-1.716243e+002	-3.991527e-001	-1.715719e+002	-1.376534e+001	-1.371099e+002
1530082000	-1.365180e+001	-1.191810e+002	-4.496770e-001	-1.768600e+002	-4.795598e-001	-1.765747e+002	-1.351841e+001	-1.421378e+002
1572581500	-1.339311e+001	-1.257639e+002	-5.774706e-001	1.782603e+002	-5.680657e-001	1.787545e+002	-1.327520e+001	-1.471508e+002
1615081000	-1.314776e+001	-1.328800e+002	-6.808105e-001	1.740172e+002	-6.251226e-001	1.743713e+002	-1.305625e+001	-1.522810e+002
1657580500	-1.296006e+001	-1.390454e+002	-6.726705e-001	1.701374e+002	-6.151202e-001	1.701052e+002	-1.283769e+001	-1.572167e+002
1700080000	-1.279957e+001	-1.453204e+002	-5.355965e-001	1.657804e+002	-5.251707e-001	1.655497e+002	-1.268366e+001	-1.625601e+002
1742579500	-1.269564e+001	-1.518855e+002	-4.050325e-001	1.602866e+002	-4.301044e-001	1.602720e+002	-1.256899e+001	-1.680958e+002
1785079000	-1.278721e+001	-1.584075e+002	-4.267392e-001	1.541415e+002	-4.427372e-001	1.544101e+002	-1.268807e+001	-1.733475e+002
1827578500	-1.283236e+001	-1.636615e+002	-6.191682e-001	1.486194e+002	-5.955269e-001	1.488973e+002	-1.273863e+001	-1.778455e+002
1870078000	-1.282188e+001	-1.697496e+002	-8.241445e-001	1.443673e+002	-7.807061e-001	1.444254e+002	-1.268648e+001	1.771797e+002
1912577500	-1.296709e+001	-1.766974e+002	-8.740827e-001	1.409047e+002	-8.538987e-001	1.406840e+002	-1.280587e+001	1.715904e+002
1955077000	-1.322985e+001	1.767190e+002	-7.584661e-001	1.368449e+002	-7.895023e-001	1.367014e+002	-1.304059e+001	1.664381e+002
1997576500	-1.349094e+001	1.697113e+002	-6.463430e-001	1.317866e+002	-6.758269e-001	1.320256e+002	-1.326828e+001	1.616855e+002
2040076000	-1.375305e+001	1.640093e+002	-6.409633e-001	1.265216e+002	-6.135210e-001	1.267661e+002	-1.363128e+001	1.565955e+002
2082575500	-1.418618e+001	1.576552e+002	-6.667509e-001	1.215624e+002	-6.075168e-001	1.214243e+002	-1.405210e+001	1.519638e+002
2125075000	-1.473888e+001	1.519401e+002	-6.874060e-001	1.165890e+002	-6.731892e-001	1.161640e+002	-1.456467e+001	1.474828e+002
2167574500	-1.526711e+001	1.458535e+002	-7.276857e-001	1.116706e+002	-7.796386e-001	1.112998e+002	-1.506126e+001	1.427117e+002
2210074000	-1.593377e+001	1.391650e+002	-7.781120e-001	1.070374e+002	-8.617293e-001	1.070701e+002	-1.565522e+001	1.379158e+002
2252573500	-1.695705e+001	1.313777e+002	-7.670923e-001	1.027016e+002	-8.344484e-001	1.032003e+002	-1.649718e+001	1.334111e+002
2295073000	-1.836041e+001	1.247468e+002	-6.972019e-001	9.801054e+001	-6.891879e-001	9.868716e+001	-1.770992e+001	1.301014e+002
2337572500	-1.990132e+001	1.174657e+002	-6.475609e-001	9.291218e+001	-5.929149e-001	9.331763e+001	-1.901842e+001	1.290867e+002
2380072000	-2.123914e+001	1.094143e+002	-6.385670e-001	8.781570e+001	-5.965937e-001	8.784676e+001	-2.026274e+001	1.297510e+002
2422571500	-2.446018e+001	9.987187e+001	-6.225822e-001	8.287997e+001	-6.241073e-001	8.284324e+001	-2.200706e+001	1.302019e+002
2465071000	-2.949497e+001	8.922267e+001	-5.972408e-001	7.776064e+001	-6.093284e-001	7.786872e+001	-2.442273e+001	1.396539e+002
2507570500	-4.195453e+001	9.890236e+001	-5.811724e-001	7.257614e+001	-5.937228e-001	7.274621e+001	-2.604875e+001	1.585140e+002
2550070000	-3.600915e+001	-8.207169e+001	-5.801386e-001	6.727217e+001	-5.818026e-001	6.751259e+001	-2.597309e+001	-1.779081e+002
2592569500	-2.708091e+001	-9.253409e+001	-5.754941e-001	6.186552e+001	-5.850230e-001	6.218628e+001	-2.387574e+001	-1.586610e+002
2635069000	-2.289263e+001	-9.979994e+001	-6.080113e-001	5.617967e+001	-6.048484e-001	5.680939e+001	-2.140937e+001	-1.513624e+002
2677568500	-2.006795e+001	-1.061883e+002	-7.498519e-001	5.048353e+001	-6.533844e-001	5.127952e+001	-1.930649e+001	-1.486473e+002
2720068000	-1.784442e+001	-1.114394e+002	-9.712108e-001	4.573587e+001	-7.771419e-001	4.592683e+001	-1.731494e+001	-1.482282e+002
2762567500	-1.589915e+001	-1.155746e+002	-1.081399e+000	4.250302e+001	-9.003658e-001	4.137869e+001	-1.541791e+001	-1.522834e+002
2805067000	-1.483950e+001	-1.259941e+002	-8.939517e-001	3.829148e+001	-8.417496e-001	3.746759e+001	-1.410212e+001	-1.541515e+002
2847566500	-1.342779e+001	-1.333717e+002	-6.545779e-001	3.227467e+001	-7.236361e-001	3.159864e+001	-1.304498e+001	-1.572650e+002
2890066000	-1.238989e+001	-1.416912e+002	-6.450045e-001	2.478942e+001	-7.669561e-001	2.468029e+001	-1.215760e+001	-1.635793e+002
2932565500	-1.170437e+001	-1.477232e+002	-9.895429e-001	1.744344e+001	-1.069954e+000	1.821930e+001	-1.147068e+001	-1.676367e+002
2975065000	-1.080571e+001	-1.521682e+002	-1.610571e+000	1.223777e+001	-1.516301e+000	1.323133e+001	-1.060938e+001	-1.708332e+002
3017564500	-9.796529e+000	-1.591218e+002	-2.116332e+000	1.067364e+001	-1.920321e+000	1.063171e+001	-9.626064e+000	-1.768291e+002
3060064000	-9.371126e+000	-1.672835e+002	-1.955534e+000	1.008599e+001	-1.845825e+000	9.184112e+000	-9.188562e+000	1.759438e+002
3102563500	-9.060688e+000	-1.726489e+002	-1.447216e+000	5.869627e+000	-1.421814e+000	4.983870e+000	-8.864849e+000	1.717274e+002
3145063000	-8.299511e+000	-1.785329e+002	-1.158905e+000	-1.260958e+000	-1.205909e+000	-2.418066e+000	-8.093725e+000	1.669222e+002
3187562500	-7.663990e+000	1.744167e+002	-1.347816e+000	-8.590016e+000	-1.490364e+000	-9.518392e+000	-7.673659e+000	1.620699e+002
3230062000	-7.791073e+000	1.694602e+002	-1.765705e+000	-1.494944e+001	-1.984056e+000	-1.456241e+001	-7.595728e+000	1.574891e+002
3272561500	-7.417547e+000	1.642070e+002	-2.374758e+000	-1.915784e+001	-2.441904e+000	-1.777334e+001	-7.254152e+000	1.527889e+002
3315061000	-7.066397e+000	1.575059e+002	-2.771979e+000	-1.988500e+001	-2.673474e+000	-1.883060e+001	-6.932730e+000	1.465193e+002
3357560500	-7.030709e+000	1.510292e+002	-2.538674e+000	-2.044778e+001	-2.368974e+000	-2.011419e+001	-6.903551e+000	1.403290e+002
3400060000	-7.012222e+000	1.460998e+002	-2.103595e+000	-2.426723e+001	-1.878432e+000	-2.488226e+001	-6.879483e+000	1.360294e+002
3442559500	-6.810443e+000	1.410791e+002	-1.816277e+000	-2.961326e+001	-1.745275e+000	-3.169796e+001	-6.697518e+000	1.321077e+002
3485059000	-6.646974e+000	1.350316e+002	-1.624795e+000	-3.575970e+001	-1.936014e+000	-3.749655e+001	-6.527217e+000	1.276801e+002
3527558500	-6.676298e+000	1.287690e+002	-1.719446e+000	-4.313141e+001	-2.128696e+000	-4.213745e+001	-6.404139e+000	1.230328e+002
3570058000	-6.546853e+000	1.230699e+002	-2.233640e+000	-4.855930e+001	-2.344574e+000	-4.573290e+001	-6.400214e+000	1.186658e+002
3612557500	-6.568636e+000	1.182343e+002	-2.604722e+000	-4.991256e+001	-2.403237e+000	-4.797189e+001	-6.462940e+000	1.124209e+002
3655057000	-6.720220e+000	1.123737e+002	-2.424247e+000	-5.116952e+001	-2.123395e+000	-5.081243e+001	-6.639902e+000	1.069434e+002
3697556500	-6.883742e+000	1.074115e+002	-2.062695e+000	-5.446214e+001	-1.789143e+000	-5.564010e+001	-6.761588e+000	1.026015e+002
3740056000	-6.972070e+000	1.022825e+002	-1.656790e+000	-5.872827e+001	-1.607214e+000	-6.116256e+001	-6.838379e+000	9.838680e+001
3782555500	-7.075666e+000	9.672835e+001	-1.183106e+000	-6.495626e+001	-1.480845e+000	-6.686755e+001	-6.894557e+000	9.407847e+001
3825055000	-7.278111e+000	9.072973e+001	-1.096927e+000	-7.354488e+001	-1.507929e+000	-7.291137e+001	-7.096983e+000	8.912816e+001
3867554500	-7.630215e+000	8.496669e+001	-1.590996e+000	-8.006178e+001	-1.707244e+000	-7.760729e+001	-7.436149e+000	8.465788e+001
3910054000	-8.053388e+000	7.942302e+001	-1.928861e+000	-8.248005e+001	-1.730132e+000	-8.073649e+001	-7.766243e+000	7.921041e+001
3952553500	-8.536617e+000	7.392770e+001	-1.759375e+000	-8.481691e+001	-1.452942e+000	-8.453819e+001	-8.287457e+000	7.474633e+001
3995053000	-9.082590e+000	6.863596e+001	-1.425667e+000	-8.901696e+001	-1.164048e+000	-9.026029e+001	-8.751620e+000	7.076255e+001
4037552500	-9.619769e+000	6.278141e+001	-1.119909e+000	-9.436967e+001	-1.053857e+000	-9.654577e+001	-9.214965e+000	6.693641e+001
4080052000	-1.040832e+001	5.648176e+001	-8.965354e-001	-1.009211e+002	-1.071877e+000	-1.026643e+002	-9.892044e+000	6.265286e+001
4122551500	-1.146944e+001	5.081966e+001	-9.234484e-001	-1.078010e+002	-1.170001e+000	-1.080898e+002	-1.081194e+001	5.884127e+001
4165051000	-1.264034e+001	4.605664e+001	-1.071133e+000	-1.132573e+002	-1.203013e+000	-1.125887e+002	-1.175544e+001	5.560796e+001
4207550500	-1.417886e+001	4.031563e+001	-1.076185e+000	-1.180049e+002	-1.088526e+000	-1.173197e+002	-1.308600e+001	5.238205e+001
4250050000	-1.623691e+001	3.569225e+001	-1.017648e+000	-1.234122e+002	-9.603643e-001	-1.231917e+002	-1.449427e+001	5.275045e+001
4292549500	-1.934008e+001	3.284805e+001	-1.028095e+000	-1.289955e+002	-9.704153e-001	-1.293283e+002	-1.625360e+001	5.679352e+001
4335049000	-2.352992e+001	3.092027e+001	-1.058771e+000	-1.343114e+002	-1.054458e+000	-1.349740e+002	-1.802610e+001	6.931662e+001
4377548500	-3.116706e+001	5.934102e+001	-1.059827e+000	-1.396691e+002	-1.106071e+000	-1.403448e+002	-1.916371e+001	8.198297e+001
4420048000	-2.710140e+001	1.380905e+002	-1.042863e+000	-1.451705e+002	-1.118257e+000	-1.457331e+002	-1.894208e+001	1.012196e+002
4462547500	-2.126877e+001	1.516697e+002	-1.095362e+000	-1.510446e+002	-1.187576e+000	-1.514467e+002	-1.812874e+001	1.076659e+002
4505047000	-1.749553e+001	1.537584e+002	-1.166707e+000	-1.563669e+002	-1.362527e+000	-1.569286e+002	-1.555370e+001	1.220678e+002
4547546500	-1.486111e+001	1.500139e+002	-1.205967e+000	-1.616011e+002	-1.474499e+000	-1.611857e+002	-1.373425e+001	1.227185e+002
4590046000	-1.310240e+001	1.454276e+002	-1.198656e+000	-1.671027e+002	-1.371098e+000	-1.655626e+002	-1.223947e+001	1.220161e+002
4632545500	-1.155939e+001	1.409442e+002	-1.227610e+000	-1.732076e+002	-1.188307e+000	-1.714474e+002	-1.083365e+001	1.208506e+002
4675045000	-1.018026e+001	1.366805e+002	-1.358840e+000	-1.795978e+002	-1.176060e+000	-1.788034e+002	-9.557070e+000	1.184405e+002
4717544500	-9.074669e+000	1.279416e+002	-1.673252e+000	1.743434e+002	-1.524951e+000	1.737835e+002	-8.675051e+000	1.148328e+002
4760044000	-8.135100e+000	1.202179e+002	-2.105804e+000	1.692750e+002	-2.107001e+000	1.689066e+002	-7.938463e+000	1.085631e+002
4802543500	-7.431452e+000	1.156816e+002	-2.275627e+000	1.673097e+002	-2.403564e+000	1.665748e+002	-7.195622e+000	1.038811e+002
4845043000	-6.947509e+000	1.101170e+002	-2.024892e+000	1.639388e+002	-2.211544e+000	1.640202e+002	-6.727491e+000	9.937889e+001
4887542500	-6.481878e+000	1.057526e+002	-1.707541e+000	1.576738e+002	-1.839368e+000	1.588000e+002	-6.225461e+000	9.598860e+001
4930042000	-5.858588e+000	1.001439e+002	-1.762164e+000	1.493597e+002	-1.688177e+000	1.508636e+002	-5.581062e+000	9.171443e+001
4972541500	-5.495775e+000	9.311572e+001	-2.331086e+000	1.421961e+002	-2.078493e+000	1.425725e+002	-5.234286e+000	8.600672e+001
5015041000	-5.307579e+000	8.759622e+001	-3.018744e+000	1.384790e+002	-2.796112e+000	1.373462e+002	-5.080800e+000	8.134934e+001
5057540500	-5.029416e+000	8.259435e+001	-3.328570e+000	1.373436e+002	-3.304821e+000	1.357751e+002	-4.910321e+000	7.675230e+001
5100040000	-5.179111e+000	7.816005e+001	-3.182765e+000	1.349152e+002	-3.313385e+000	1.342610e+002	-4.890851e+000	7.168660e+001
5142539500	-4.690647e+000	7.299596e+001	-2.808779e+000	1.303610e+002	-2.994232e+000	1.304445e+002	-4.530882e+000	6.798002e+001
5185039000	-4.500180e+000	6.808504e+001	-2.775230e+000	1.233473e+002	-2.837612e+000	1.243999e+002	-4.272553e+000	6.387051e+001
5227538500	-4.336966e+000	6.267147e+001	-3.125839e+000	1.174886e+002	-2.989791e+000	1.181986e+002	-4.126231e+000	5.922656e+001
5270038000	-4.258326e+000	5.738770e+001	-3.472331e+000	1.136779e+002	-3.290957e+000	1.130526e+002	-4.086944e+000	5.470845e+001
5312537500	-4.199376e+000	5.253130e+001	-3.641814e+000	1.106141e+002	-3.601271e+000	1.092064e+002	-4.060241e+000	5.032843e+001
5355037000	-4.162609e+000	4.775875e+001	-3.665168e+000	1.072649e+002	-3.757669e+000	1.062091e+002	-4.021970e+000	4.596619e+001
5397536500	-4.201343e+000	4.291685e+001	-3.643680e+000	1.033481e+002	-3.754138e+000	1.029930e+002	-4.016757e+000	4.153220e+001
5440036000	-4.277678e+000	3.816972e+001	-3.695765e+000	9.917038e+001	-3.722837e+000	9.914724e+001	-4.096959e+000	3.731649e+001
5482535500	-4.339663e+000	3.337327e+001	-3.770664e+000	9.584381e+001	-3.774996e+000	9.523547e+001	-4.219224e+000	3.269109e+001
5525035000	-4.474097e+000	2.801575e+001	-3.612246e+000	9.272283e+001	-3.687886e+000	9.180969e+001	-4.246214e+000	2.898958e+001
5567534500	-4.595762e+000	2.294061e+001	-3.395717e+000	8.824245e+001	-3.556747e+000	8.777349e+001	-4.391427e+000	2.440689e+001
5610034000	-4.763557e+000	1.797247e+001	-3.321839e+000	8.286883e+001	-3.452222e+000	8.299329e+001	-4.558663e+000	1.990381e+001
5652533500	-5.016323e+000	1.305588e+001	-3.399976e+000	7.802988e+001	-3.438949e+000	7.817763e+001	-4.788761e+000	1.551778e+001
5695033000	-5.358425e+000	8.332656e+000	-3.463038e+000	7.426782e+001	-3.483324e+000	7.394245e+001	-5.075322e+000	1.169301e+001
5737532500	-5.714317e+000	3.544108e+000	-3.375510e+000	7.098882e+001	-3.450637e+000	7.042554e+001	-5.367890e+000	8.013182e+000
5780032000	-6.137866e+000	-1.771661e+000	-3.122885e+000	6.732238e+001	-3.245005e+000	6.701508e+001	-5.763025e+000	3.902994e+000
5822531500	-6.682474e+000	-7.194109e+000	-2.792177e+000	6.245426e+001	-2.920005e+000	6.250426e+001	-6.286086e+000	-5.246953e-001
5865031000	-7.341089e+000	-1.243461e+001	-2.546083e+000	5.653956e+001	-2.642961e+000	5.684292e+001	-6.878474e+000	-4.615087e+000
5907530500	-8.162837e+000	-1.756996e+001	-2.465493e+000	5.057166e+001	-2.510623e+000	5.090255e+001	-7.555226e+000	-8.581236e+000
5950030000	-9.162501e+000	-2.251751e+001	-2.394231e+000	4.527157e+001	-2.430681e+000	4.539194e+001	-8.369653e+000	-1.186742e+001
5992529500	-1.039833e+001	-2.721050e+001	-2.276616e+000	4.000950e+001	-2.323002e+000	4.003108e+001	-9.345270e+000	-1.402129e+001
6035029000	-1.199647e+001	-3.096392e+001	-2.128277e+000	3.437492e+001	-2.172858e+000	3.446613e+001	-1.055542e+001	-1.476211e+001
6077528500	-1.414587e+001	-3.242177e+001	-1.988428e+000	2.821218e+001	-2.025124e+000	2.837436e+001	-1.205825e+001	-1.316245e+001
6120028000	-1.707890e+001	-2.835888e+001	-1.890470e+000	2.176371e+001	-1.925414e+000	2.188073e+001	-1.366676e+001	-7.422784e+000
6162527500	-2.055183e+001	-1.008405e+001	-1.856721e+000	1.506196e+001	-1.885151e+000	1.525780e+001	-1.482954e+001	3.576273e+000
6205027000	-2.140543e+001	2.704886e+001	-1.873085e+000	8.367054e+000	-1.890944e+000	8.546680e+000	-1.490102e+001	1.921647e+001
6247526500	-1.823649e+001	5.353157e+001	-1.935853e+000	1.799391e+000	-1.951792e+000	1.935297e+000	-1.402994e+001	3.065277e+001
6290026000	-1.503775e+001	6.188276e+001	-2.030369e+000	-4.833141e+000	-2.062211e+000	-4.671817e+000	-1.246100e+001	3.842586e+001
6332525500	-1.264653e+001	5.928114e+001	-2.159282e+000	-1.135812e+001	-2.219079e+000	-1.115015e+001	-1.077447e+001	4.109085e+001
6375025000	-1.054550e+001	5.582254e+001	-2.378533e+000	-1.761542e+001	-2.405578e+000	-1.752577e+001	-9.384109e+000	4.104912e+001
6417524500	-8.934191e+000	5.096106e+001	-2.603353e+000	-2.378453e+001	-2.628497e+000	-2.371340e+001	-8.177362e+000	3.937025e+001
